
T06AC 000:360 SEGGER J-Link V4.35b (beta) Log File (0001ms, 0357ms total)
T06AC 000:360 DLL Compiled: Sep  2 2011 18:34:46 (0001ms, 0357ms total)
T06AC 000:360 Logging started @ 2012-12-07 14:07 (0001ms, 0357ms total)
T06AC 000:361 JLINK_SetWarnOutHandler(...) (0000ms, 0358ms total)
T06AC 000:361 JLINK_OpenEx(...)
Firmware: J-Link ARM V8 compiled Sep  2 2011 17:54:36
Hardware: V8.00
S/N: 20100214
Feature(s): RDI,FlashDL,FlashBP,JFlash,GDBFull  returns O.K. (0100ms, 0358ms total)
T06AC 000:461 JLINK_SetErrorOutHandler(...) (0000ms, 0458ms total)
T06AC 000:461 JLINK_ExecCommand("Device = STM32F103VC", ...)
                JLINK_ExecCommand("map ram 0x20000000 - 0x2000BFFF", ...)  returns 0x00 (0000ms, 0000ms total)
                JLINK_AddMirrorAreaEx(Addr = 0x00000000, Size = 0x00000000) (0000ms, 0000ms total)
              Device "STM32F103VC" selected (256 KB flash, 48 KB RAM).  returns 0x00 (0004ms, 0458ms total)
T06AC 000:468 JLINK_ExecCommand("ProjectFile = "E:\WorkArea\热泵控制器\热泵控制器arm升级版\软件\20121203\USER\JLinkSettings.ini"", ...)  returns 0x00 (0001ms, 0462ms total)
T06AC 000:475 JLINK_ExecCommand("DisableConnectionTimeout", ...)  returns 0x00 (0000ms, 0463ms total)
T06AC 000:475 JLINK_TIF_Select(JLINKARM_TIF_SWD)  returns 0x00 (0007ms, 0463ms total)
T06AC 000:482 JLINK_SetSpeed(500) (0001ms, 0470ms total)
T06AC 000:483 JLINK_GetHardwareVersion()  returns 0x13880 (0000ms, 0471ms total)
T06AC 000:483 JLINK_GetDLLVersion()  returns 43502 (0000ms, 0471ms total)
T06AC 000:483 JLINK_GetFirmwareString(...) (0000ms, 0471ms total)
T06AC 000:493 JLINK_GetDLLVersion()  returns 43502 (0000ms, 0471ms total)
T06AC 000:493 JLINK_GetCompileDateTime() (0000ms, 0471ms total)
T06AC 000:496 JLINK_GetFirmwareString(...) (0000ms, 0471ms total)
T06AC 000:499 JLINK_GetHardwareVersion()  returns 0x13880 (0000ms, 0471ms total)
T06AC 000:512 JLINK_GetId() >0x108 TIF>Found SWD-DP with ID 0x1BA01477 >0x33 TIF> >0x33 TIF> >0x35 TIF> >0x33 TIF> >0x35 TIF> >0x33 TIF> >0x33 TIF> >0x35 TIF> >0x33 TIF> >0x33 TIF> >0x35 TIF> >0x33 TIF> >0x33 TIF> >0x35 TIF> >0x33 TIF> >0x33 TIF> >0x35 TIF> >0x35 TIF> >0x35 TIF> >0x35 TIF> >0x35 TIF> >0x33 TIF> >0x33 TIF> >0x35 TIF> >0x33 TIF> >0x33 TIF> >0x33 TIF>TPIU fitted.ETM fitted. >0x35 TIF> >0x33 TIF> >0x33 TIF> >0x35 TIF> >0x33 TIF> >0x33 TIF>  FPUnit: 6 code (BP) slots and 2 literal slots
 >0x35 TIF> >0x33 TIF> >0x33 TIF> >0x35 TIF> >0x33 TIF> >0x33 TIF> >0x35 TIF> >0x33 TIF> >0x33 TIF>Found Cortex-M3 r1p1, Little endian. >0x33 TIF>  returns 0x1BA01477 (0066ms, 0471ms total)
T06AC 000:578 JLINK_GetDebugInfo(0x100) -- Value=0xE00FF003  returns 0x00 (0000ms, 0537ms total)
T06AC 000:579 JLINK_ReadMem (0xE00FFFF0, 0x0010 Bytes, ...) -- CPU is running -- CPU_ReadMem(16 bytes @ 0xE00FFFF0) -- Data:  0D 00 00 00 10 00 00 00 05 00 00 00 B1 00 00 00  returns 0x00 (0004ms, 0537ms total)
T06AC 000:583 JLINK_ReadMem (0xE00FFFD0, 0x0020 Bytes, ...) -- CPU is running -- CPU_ReadMem(32 bytes @ 0xE00FFFD0) -- Data:  00 00 00 00 00 00 00 00 00 00 00 00 00 00 00 00 ...  returns 0x00 (0002ms, 0541ms total)
T06AC 000:585 JLINK_ReadMem (0xE00FF000, 0x0018 Bytes, ...) -- CPU is running -- CPU_ReadMem(24 bytes @ 0xE00FF000) -- Data:  03 F0 F0 FF 03 20 F0 FF 03 30 F0 FF 03 10 F0 FF ...  returns 0x00 (0002ms, 0543ms total)
T06AC 000:587 JLINK_ReadMemU32(0xE000ED00, 0x0001 Items, ...) -- CPU is running -- CPU_ReadMem(4 bytes @ 0xE000ED00) -- Data:  31 C2 1F 41  returns 0x01 (0002ms, 0545ms total)
T06AC 000:589 JLINK_SetResetType(JLINKARM_RESET_TYPE_NORMAL)  returns JLINKARM_RESET_TYPE_NORMAL (0000ms, 0547ms total)
T06AC 000:589 JLINK_Reset() >0x108 TIF>Found SWD-DP with ID 0x1BA01477 >0x33 TIF> >0x33 TIF> >0x35 TIF> >0x33 TIF> >0x35 TIF> >0x33 TIF> >0x33 TIF> >0x35 TIF> >0x33 TIF> >0x33 TIF> >0x35 TIF> >0x33 TIF> >0x33 TIF> >0x35 TIF> >0x33 TIF> >0x33 TIF> >0x35 TIF> >0x35 TIF> >0x35 TIF> >0x35 TIF> >0x35 TIF> >0x33 TIF> >0x33 TIF> >0x35 TIF> >0x33 TIF> >0x33 TIF> >0x33 TIF>TPIU fitted.ETM fitted. >0x35 TIF> >0x33 TIF> >0x33 TIF> >0x35 TIF> >0x33 TIF> >0x33 TIF>  FPUnit: 6 code (BP) slots and 2 literal slots
 >0x35 TIF> >0x33 TIF> >0x33 TIF> >0x35 TIF> >0x33 TIF> >0x33 TIF> >0x35 TIF> >0x33 TIF> >0x33 TIF>Found Cortex-M3 r1p1, Little endian. (0080ms, 0547ms total)
T06AC 000:669 JLINK_Halt()  returns 0x00 (0000ms, 0627ms total)
T06AC 000:669 JLINK_IsHalted()  returns TRUE (0000ms, 0627ms total)
T06AC 000:669 JLINK_ReadMemU32(0xE000EDF0, 0x0001 Items, ...) -- CPU_ReadMem(4 bytes @ 0xE000EDF0) -- Data:  03 00 03 00  returns 0x01 (0002ms, 0627ms total)
T06AC 000:671 JLINK_WriteU32(0xE000EDF0, 0xA05F0003) -- CPU_WriteMem(4 bytes @ 0xE000EDF0)  returns 0x00 (0001ms, 0629ms total)
T06AC 000:672 JLINK_WriteU32(0xE000EDFC, 0x01000000) -- CPU_WriteMem(4 bytes @ 0xE000EDFC)  returns 0x00 (0001ms, 0630ms total)
T06AC 000:673 JLINK_ReadMemU32(0xE0002000, 0x0001 Items, ...) -- CPU_ReadMem(4 bytes @ 0xE0002000) -- Data:  60 02 00 00  returns 0x01 (0002ms, 0631ms total)
T06AC 000:675 JLINK_ReadMemU32(0xE0001000, 0x0001 Items, ...) -- CPU_ReadMem(4 bytes @ 0xE0001000) -- Data:  01 00 00 40  returns 0x01 (0002ms, 0633ms total)
T06AC 000:677 JLINK_WriteU32(0xE0001028, 0x00000000) -- CPU_WriteMem(4 bytes @ 0xE0001028)  returns 0x00 (0001ms, 0635ms total)
T06AC 000:678 JLINK_WriteU32(0xE0001038, 0x00000000) -- CPU_WriteMem(4 bytes @ 0xE0001038)  returns 0x00 (0001ms, 0636ms total)
T06AC 000:679 JLINK_WriteU32(0xE0001048, 0x00000000) -- CPU_WriteMem(4 bytes @ 0xE0001048)  returns 0x00 (0001ms, 0637ms total)
T06AC 000:680 JLINK_WriteU32(0xE0001058, 0x00000000) -- CPU_WriteMem(4 bytes @ 0xE0001058)  returns 0x00 (0001ms, 0638ms total)
T06AC 000:690 JLINK_GetHWStatus(...)  returns 0x00 (0001ms, 0639ms total)
T06AC 000:698 JLINK_GetNumBPUnits(Type = 0xFFFFFF00)  returns 0x06 (0000ms, 0640ms total)
T06AC 000:698 JLINK_GetNumBPUnits(Type = 0xF0)  returns 0x2000 (0000ms, 0640ms total)
T06AC 000:698 JLINK_GetNumWPUnits()  returns 0x04 (0000ms, 0640ms total)
T06AC 000:703 JLINK_GetSpeed()  returns 0x1F4 (0000ms, 0640ms total)
T06AC 000:707 JLINK_ReadMemU32(0xE000E004, 0x0001 Items, ...) -- CPU_ReadMem(4 bytes @ 0xE000E004) -- Data:  01 00 00 00  returns 0x01 (0002ms, 0640ms total)
T06AC 000:709 JLINK_ReadMemU32(0xE000E004, 0x0001 Items, ...) -- CPU_ReadMem(4 bytes @ 0xE000E004) -- Data:  01 00 00 00  returns 0x01 (0002ms, 0642ms total)
T06AC 000:711 JLINK_WriteMem(0xE0001000, 0x001C Bytes, ...) -- Data:  01 00 00 00 00 00 00 00 00 00 00 00 00 00 00 00 ... -- CPU_WriteMem(28 bytes @ 0xE0001000)  returns 0x1C (0002ms, 0644ms total)
T06AC 000:713 JLINK_ReadMem (0xE0001000, 0x001C Bytes, ...) -- CPU_ReadMem(28 bytes @ 0xE0001000) -- Data:  01 00 00 40 00 00 00 00 00 00 00 00 00 00 00 00 ...  returns 0x00 (0002ms, 0646ms total)
T06AC 000:715 JLINK_Halt()  returns 0x00 (0000ms, 0648ms total)
T06AC 000:715 JLINK_IsHalted()  returns TRUE (0000ms, 0648ms total)
T06AC 000:718 JLINK_WriteMem(0x20000000, 0x0164 Bytes, ...) -- Data:  00 BE 0A E0 0D 78 2D 06 68 40 08 24 40 00 00 D3 ... -- CPU_WriteMem(356 bytes @ 0x20000000)  returns 0x164 (0012ms, 0648ms total)
T06AC 000:730 JLINK_WriteReg(R0, 0x08000000)  returns 0x00 (0000ms, 0660ms total)
T06AC 000:730 JLINK_WriteReg(R1, 0x007A1200)  returns 0x00 (0000ms, 0660ms total)
T06AC 000:730 JLINK_WriteReg(R2, 0x00000001)  returns 0x00 (0000ms, 0660ms total)
T06AC 000:730 JLINK_WriteReg(R3, 0x00000000)  returns 0x00 (0000ms, 0660ms total)
T06AC 000:730 JLINK_WriteReg(R4, 0x00000000)  returns 0x00 (0000ms, 0660ms total)
T06AC 000:730 JLINK_WriteReg(R5, 0x00000000)  returns 0x00 (0000ms, 0660ms total)
T06AC 000:730 JLINK_WriteReg(R6, 0x00000000)  returns 0x00 (0000ms, 0660ms total)
T06AC 000:730 JLINK_WriteReg(R7, 0x00000000)  returns 0x00 (0000ms, 0660ms total)
T06AC 000:730 JLINK_WriteReg(R8, 0x00000000)  returns 0x00 (0000ms, 0660ms total)
T06AC 000:730 JLINK_WriteReg(R9, 0x20000160)  returns 0x00 (0000ms, 0660ms total)
T06AC 000:730 JLINK_WriteReg(R10, 0x00000000)  returns 0x00 (0000ms, 0660ms total)
T06AC 000:730 JLINK_WriteReg(R11, 0x00000000)  returns 0x00 (0000ms, 0660ms total)
T06AC 000:730 JLINK_WriteReg(R12, 0x00000000)  returns 0x00 (0001ms, 0660ms total)
T06AC 000:731 JLINK_WriteReg(R13, 0x20000800)  returns 0x00 (0000ms, 0661ms total)
T06AC 000:731 JLINK_WriteReg(R14, 0x20000001)  returns 0x00 (0000ms, 0661ms total)
T06AC 000:731 JLINK_WriteReg(R15, 0x20000038)  returns 0x00 (0000ms, 0661ms total)
T06AC 000:731 JLINK_WriteReg(XPSR, 0x01000000)  returns 0x00 (0000ms, 0661ms total)
T06AC 000:731 JLINK_WriteReg(MSP, 0x20000800)  returns 0x00 (0000ms, 0661ms total)
T06AC 000:731 JLINK_WriteReg(PSP, 0x20000800)  returns 0x00 (0000ms, 0661ms total)
T06AC 000:731 JLINK_WriteReg(BASEPRI, 0x00000000)  returns 0x00 (0000ms, 0661ms total)
T06AC 000:731 JLINK_WriteReg(CONTROL, 0x00000000)  returns 0x00 (0000ms, 0661ms total)
T06AC 000:731 JLINK_WriteReg(FAULTMASK, 0x00000000)  returns 0x00 (0000ms, 0661ms total)
T06AC 000:731 JLINK_WriteReg(BASEPRI_MAX, 0x00000000)  returns 0x00 (0000ms, 0661ms total)
T06AC 000:731 JLINK_SetBPEx(Addr = 0x20000000, Type = 0xFFFFFFF2) -- CPU_ReadMem(2 bytes @ 0x20000000)  returns 0x00000001 (0001ms, 0661ms total)
T06AC 000:732 JLINK_Go() -- CPU_WriteMem(2 bytes @ 0x20000000) -- CPU_WriteMem(4 bytes @ 0xE0002008) -- CPU_WriteMem(4 bytes @ 0xE000200C) -- CPU_WriteMem(4 bytes @ 0xE0002010) -- CPU_WriteMem(4 bytes @ 0xE0002014) -- CPU_WriteMem(4 bytes @ 0xE0002018) -- CPU_WriteMem(4 bytes @ 0xE000201C) (0013ms, 0662ms total)
T06AC 000:745 JLINK_IsHalted() -- CPU_ReadMem(2 bytes @ 0x20000000)  returns TRUE (0010ms, 0675ms total)
T06AC 000:755 JLINK_ReadReg(R15)  returns 0x20000000 (0000ms, 0675ms total)
T06AC 000:755 JLINK_ClrBPEx(BPHandle = 0x00000001)  returns 0x00 (0000ms, 0675ms total)
T06AC 000:755 JLINK_ReadReg(R0)  returns 0x00000000 (0000ms, 0675ms total)
T06AC 000:755 JLINK_WriteReg(R0, 0x08000000)  returns 0x00 (0000ms, 0675ms total)
T06AC 000:755 JLINK_WriteReg(R1, 0x007A1200)  returns 0x00 (0000ms, 0675ms total)
T06AC 000:755 JLINK_WriteReg(R2, 0x00000001)  returns 0x00 (0000ms, 0675ms total)
T06AC 000:755 JLINK_WriteReg(R3, 0x00000000)  returns 0x00 (0000ms, 0675ms total)
T06AC 000:755 JLINK_WriteReg(R4, 0x00000000)  returns 0x00 (0000ms, 0675ms total)
T06AC 000:755 JLINK_WriteReg(R5, 0x00000000)  returns 0x00 (0000ms, 0675ms total)
T06AC 000:755 JLINK_WriteReg(R6, 0x00000000)  returns 0x00 (0001ms, 0675ms total)
T06AC 000:756 JLINK_WriteReg(R7, 0x00000000)  returns 0x00 (0000ms, 0676ms total)
T06AC 000:756 JLINK_WriteReg(R8, 0x00000000)  returns 0x00 (0000ms, 0676ms total)
T06AC 000:756 JLINK_WriteReg(R9, 0x20000160)  returns 0x00 (0000ms, 0676ms total)
T06AC 000:756 JLINK_WriteReg(R10, 0x00000000)  returns 0x00 (0000ms, 0676ms total)
T06AC 000:756 JLINK_WriteReg(R11, 0x00000000)  returns 0x00 (0000ms, 0676ms total)
T06AC 000:756 JLINK_WriteReg(R12, 0x00000000)  returns 0x00 (0000ms, 0676ms total)
T06AC 000:756 JLINK_WriteReg(R13, 0x20000800)  returns 0x00 (0000ms, 0676ms total)
T06AC 000:756 JLINK_WriteReg(R14, 0x20000001)  returns 0x00 (0000ms, 0676ms total)
T06AC 000:756 JLINK_WriteReg(R15, 0x2000007C)  returns 0x00 (0000ms, 0676ms total)
T06AC 000:756 JLINK_WriteReg(XPSR, 0x01000000)  returns 0x00 (0000ms, 0676ms total)
T06AC 000:756 JLINK_WriteReg(MSP, 0x20000800)  returns 0x00 (0000ms, 0676ms total)
T06AC 000:756 JLINK_WriteReg(PSP, 0x20000800)  returns 0x00 (0000ms, 0676ms total)
T06AC 000:756 JLINK_WriteReg(BASEPRI, 0x00000000)  returns 0x00 (0000ms, 0676ms total)
T06AC 000:756 JLINK_WriteReg(CONTROL, 0x00000000)  returns 0x00 (0000ms, 0676ms total)
T06AC 000:756 JLINK_WriteReg(FAULTMASK, 0x00000000)  returns 0x00 (0000ms, 0676ms total)
T06AC 000:756 JLINK_WriteReg(BASEPRI_MAX, 0x00000000)  returns 0x00 (0000ms, 0676ms total)
T06AC 000:756 JLINK_SetBPEx(Addr = 0x20000000, Type = 0xFFFFFFF2)  returns 0x00000002 (0000ms, 0676ms total)
T06AC 000:756 JLINK_Go() -- CPU_WriteMem(4 bytes @ 0xE0002008) -- CPU_WriteMem(4 bytes @ 0xE000200C) -- CPU_WriteMem(4 bytes @ 0xE0002010) -- CPU_WriteMem(4 bytes @ 0xE0002014) -- CPU_WriteMem(4 bytes @ 0xE0002018) -- CPU_WriteMem(4 bytes @ 0xE000201C) (0011ms, 0676ms total)
T06AC 000:767 JLINK_IsHalted()  returns FALSE (0001ms, 0687ms total)
T06AC 000:819 JLINK_IsHalted() -- CPU_ReadMem(2 bytes @ 0x20000000)  returns TRUE (0010ms, 0687ms total)
T06AC 000:829 JLINK_ReadReg(R15)  returns 0x20000000 (0000ms, 0687ms total)
T06AC 000:829 JLINK_ClrBPEx(BPHandle = 0x00000002)  returns 0x00 (0000ms, 0687ms total)
T06AC 000:829 JLINK_ReadReg(R0)  returns 0x00000000 (0000ms, 0687ms total)
T06AC 000:881 JLINK_WriteReg(R0, 0x00000001)  returns 0x00 (0001ms, 0687ms total)
T06AC 000:882 JLINK_WriteReg(R1, 0x007A1200)  returns 0x00 (0000ms, 0688ms total)
T06AC 000:882 JLINK_WriteReg(R2, 0x00000001)  returns 0x00 (0000ms, 0688ms total)
T06AC 000:882 JLINK_WriteReg(R3, 0x00000000)  returns 0x00 (0000ms, 0688ms total)
T06AC 000:882 JLINK_WriteReg(R4, 0x00000000)  returns 0x00 (0000ms, 0688ms total)
T06AC 000:882 JLINK_WriteReg(R5, 0x00000000)  returns 0x00 (0000ms, 0688ms total)
T06AC 000:882 JLINK_WriteReg(R6, 0x00000000)  returns 0x00 (0000ms, 0688ms total)
T06AC 000:882 JLINK_WriteReg(R7, 0x00000000)  returns 0x00 (0000ms, 0688ms total)
T06AC 000:882 JLINK_WriteReg(R8, 0x00000000)  returns 0x00 (0000ms, 0688ms total)
T06AC 000:882 JLINK_WriteReg(R9, 0x20000160)  returns 0x00 (0000ms, 0688ms total)
T06AC 000:882 JLINK_WriteReg(R10, 0x00000000)  returns 0x00 (0000ms, 0688ms total)
T06AC 000:882 JLINK_WriteReg(R11, 0x00000000)  returns 0x00 (0000ms, 0688ms total)
T06AC 000:882 JLINK_WriteReg(R12, 0x00000000)  returns 0x00 (0000ms, 0688ms total)
T06AC 000:882 JLINK_WriteReg(R13, 0x20000800)  returns 0x00 (0000ms, 0688ms total)
T06AC 000:882 JLINK_WriteReg(R14, 0x20000001)  returns 0x00 (0000ms, 0688ms total)
T06AC 000:882 JLINK_WriteReg(R15, 0x2000006A)  returns 0x00 (0000ms, 0688ms total)
T06AC 000:882 JLINK_WriteReg(XPSR, 0x01000000)  returns 0x00 (0000ms, 0688ms total)
T06AC 000:882 JLINK_WriteReg(MSP, 0x20000800)  returns 0x00 (0000ms, 0688ms total)
T06AC 000:882 JLINK_WriteReg(PSP, 0x20000800)  returns 0x00 (0000ms, 0688ms total)
T06AC 000:882 JLINK_WriteReg(BASEPRI, 0x00000000)  returns 0x00 (0000ms, 0688ms total)
T06AC 000:882 JLINK_WriteReg(CONTROL, 0x00000000)  returns 0x00 (0000ms, 0688ms total)
T06AC 000:882 JLINK_WriteReg(FAULTMASK, 0x00000000)  returns 0x00 (0000ms, 0688ms total)
T06AC 000:882 JLINK_WriteReg(BASEPRI_MAX, 0x00000000)  returns 0x00 (0000ms, 0688ms total)
T06AC 000:882 JLINK_SetBPEx(Addr = 0x20000000, Type = 0xFFFFFFF2)  returns 0x00000003 (0000ms, 0688ms total)
T06AC 000:882 JLINK_Go() -- CPU_WriteMem(4 bytes @ 0xE0002008) -- CPU_WriteMem(4 bytes @ 0xE000200C) -- CPU_WriteMem(4 bytes @ 0xE0002010) -- CPU_WriteMem(4 bytes @ 0xE0002014) -- CPU_WriteMem(4 bytes @ 0xE0002018) -- CPU_WriteMem(4 bytes @ 0xE000201C) (0011ms, 0688ms total)
T06AC 000:893 JLINK_IsHalted() -- CPU_ReadMem(2 bytes @ 0x20000000)  returns TRUE (0010ms, 0699ms total)
T06AC 000:903 JLINK_ReadReg(R15)  returns 0x20000000 (0000ms, 0699ms total)
T06AC 000:903 JLINK_ClrBPEx(BPHandle = 0x00000003)  returns 0x00 (0000ms, 0699ms total)
T06AC 000:903 JLINK_ReadReg(R0)  returns 0x00000000 (0000ms, 0699ms total)
T06AC 000:909 JLINK_WriteMem(0x20000000, 0x0164 Bytes, ...) -- Data:  00 BE 0A E0 0D 78 2D 06 68 40 08 24 40 00 00 D3 ... -- CPU_WriteMem(356 bytes @ 0x20000000)  returns 0x164 (0012ms, 0699ms total)
T06AC 000:921 JLINK_WriteReg(R0, 0x08000000)  returns 0x00 (0000ms, 0711ms total)
T06AC 000:921 JLINK_WriteReg(R1, 0x007A1200)  returns 0x00 (0000ms, 0711ms total)
T06AC 000:921 JLINK_WriteReg(R2, 0x00000002)  returns 0x00 (0000ms, 0711ms total)
T06AC 000:921 JLINK_WriteReg(R3, 0x00000000)  returns 0x00 (0000ms, 0711ms total)
T06AC 000:921 JLINK_WriteReg(R4, 0x00000000)  returns 0x00 (0000ms, 0711ms total)
T06AC 000:921 JLINK_WriteReg(R5, 0x00000000)  returns 0x00 (0000ms, 0711ms total)
T06AC 000:921 JLINK_WriteReg(R6, 0x00000000)  returns 0x00 (0000ms, 0711ms total)
T06AC 000:921 JLINK_WriteReg(R7, 0x00000000)  returns 0x00 (0000ms, 0711ms total)
T06AC 000:921 JLINK_WriteReg(R8, 0x00000000)  returns 0x00 (0000ms, 0711ms total)
T06AC 000:921 JLINK_WriteReg(R9, 0x20000160)  returns 0x00 (0000ms, 0711ms total)
T06AC 000:921 JLINK_WriteReg(R10, 0x00000000)  returns 0x00 (0000ms, 0711ms total)
T06AC 000:921 JLINK_WriteReg(R11, 0x00000000)  returns 0x00 (0000ms, 0711ms total)
T06AC 000:921 JLINK_WriteReg(R12, 0x00000000)  returns 0x00 (0000ms, 0711ms total)
T06AC 000:921 JLINK_WriteReg(R13, 0x20000800)  returns 0x00 (0000ms, 0711ms total)
T06AC 000:921 JLINK_WriteReg(R14, 0x20000001)  returns 0x00 (0000ms, 0711ms total)
T06AC 000:921 JLINK_WriteReg(R15, 0x20000038)  returns 0x00 (0000ms, 0711ms total)
T06AC 000:921 JLINK_WriteReg(XPSR, 0x01000000)  returns 0x00 (0000ms, 0711ms total)
T06AC 000:921 JLINK_WriteReg(MSP, 0x20000800)  returns 0x00 (0000ms, 0711ms total)
T06AC 000:921 JLINK_WriteReg(PSP, 0x20000800)  returns 0x00 (0000ms, 0711ms total)
T06AC 000:921 JLINK_WriteReg(BASEPRI, 0x00000000)  returns 0x00 (0000ms, 0711ms total)
T06AC 000:921 JLINK_WriteReg(CONTROL, 0x00000000)  returns 0x00 (0000ms, 0711ms total)
T06AC 000:921 JLINK_WriteReg(FAULTMASK, 0x00000000)  returns 0x00 (0000ms, 0711ms total)
T06AC 000:921 JLINK_WriteReg(BASEPRI_MAX, 0x00000000)  returns 0x00 (0000ms, 0711ms total)
T06AC 000:921 JLINK_SetBPEx(Addr = 0x20000000, Type = 0xFFFFFFF2) -- CPU_ReadMem(2 bytes @ 0x20000000)  returns 0x00000004 (0002ms, 0711ms total)
T06AC 000:923 JLINK_Go() -- CPU_WriteMem(2 bytes @ 0x20000000) -- CPU_WriteMem(4 bytes @ 0xE0002008) -- CPU_WriteMem(4 bytes @ 0xE000200C) -- CPU_WriteMem(4 bytes @ 0xE0002010) -- CPU_WriteMem(4 bytes @ 0xE0002014) -- CPU_WriteMem(4 bytes @ 0xE0002018) -- CPU_WriteMem(4 bytes @ 0xE000201C) (0013ms, 0713ms total)
T06AC 000:936 JLINK_IsHalted() -- CPU_ReadMem(2 bytes @ 0x20000000)  returns TRUE (0010ms, 0726ms total)
T06AC 000:946 JLINK_ReadReg(R15)  returns 0x20000000 (0000ms, 0726ms total)
T06AC 000:946 JLINK_ClrBPEx(BPHandle = 0x00000004)  returns 0x00 (0000ms, 0726ms total)
T06AC 000:947 JLINK_ReadReg(R0)  returns 0x00000000 (0000ms, 0726ms total)
T06AC 000:947 JLINK_WriteMem(0x20000164, 0x0400 Bytes, ...) -- Data:  00 04 00 20 47 01 00 08 A1 02 00 08 A3 02 00 08 ... -- CPU_WriteMem(1024 bytes @ 0x20000164)  returns 0x400 (0030ms, 0726ms total)
T06AC 000:977 JLINK_WriteReg(R0, 0x08000000)  returns 0x00 (0000ms, 0756ms total)
T06AC 000:977 JLINK_WriteReg(R1, 0x00000400)  returns 0x00 (0000ms, 0756ms total)
T06AC 000:977 JLINK_WriteReg(R2, 0x20000164)  returns 0x00 (0000ms, 0756ms total)
T06AC 000:977 JLINK_WriteReg(R3, 0x00000000)  returns 0x00 (0000ms, 0756ms total)
T06AC 000:977 JLINK_WriteReg(R4, 0x00000000)  returns 0x00 (0000ms, 0756ms total)
T06AC 000:977 JLINK_WriteReg(R5, 0x00000000)  returns 0x00 (0000ms, 0756ms total)
T06AC 000:977 JLINK_WriteReg(R6, 0x00000000)  returns 0x00 (0000ms, 0756ms total)
T06AC 000:977 JLINK_WriteReg(R7, 0x00000000)  returns 0x00 (0000ms, 0756ms total)
T06AC 000:977 JLINK_WriteReg(R8, 0x00000000)  returns 0x00 (0000ms, 0756ms total)
T06AC 000:977 JLINK_WriteReg(R9, 0x20000160)  returns 0x00 (0000ms, 0756ms total)
T06AC 000:977 JLINK_WriteReg(R10, 0x00000000)  returns 0x00 (0000ms, 0756ms total)
T06AC 000:977 JLINK_WriteReg(R11, 0x00000000)  returns 0x00 (0000ms, 0756ms total)
T06AC 000:977 JLINK_WriteReg(R12, 0x00000000)  returns 0x00 (0000ms, 0756ms total)
T06AC 000:977 JLINK_WriteReg(R13, 0x20000800)  returns 0x00 (0000ms, 0756ms total)
T06AC 000:977 JLINK_WriteReg(R14, 0x20000001)  returns 0x00 (0001ms, 0756ms total)
T06AC 000:978 JLINK_WriteReg(R15, 0x200000F4)  returns 0x00 (0000ms, 0757ms total)
T06AC 000:978 JLINK_WriteReg(XPSR, 0x01000000)  returns 0x00 (0000ms, 0757ms total)
T06AC 000:978 JLINK_WriteReg(MSP, 0x20000800)  returns 0x00 (0000ms, 0757ms total)
T06AC 000:978 JLINK_WriteReg(PSP, 0x20000800)  returns 0x00 (0000ms, 0757ms total)
T06AC 000:978 JLINK_WriteReg(BASEPRI, 0x00000000)  returns 0x00 (0000ms, 0757ms total)
T06AC 000:978 JLINK_WriteReg(CONTROL, 0x00000000)  returns 0x00 (0000ms, 0757ms total)
T06AC 000:978 JLINK_WriteReg(FAULTMASK, 0x00000000)  returns 0x00 (0000ms, 0757ms total)
T06AC 000:978 JLINK_WriteReg(BASEPRI_MAX, 0x00000000)  returns 0x00 (0000ms, 0757ms total)
T06AC 000:978 JLINK_SetBPEx(Addr = 0x20000000, Type = 0xFFFFFFF2)  returns 0x00000005 (0000ms, 0757ms total)
T06AC 000:978 JLINK_Go() -- CPU_WriteMem(4 bytes @ 0xE0002008) -- CPU_WriteMem(4 bytes @ 0xE000200C) -- CPU_WriteMem(4 bytes @ 0xE0002010) -- CPU_WriteMem(4 bytes @ 0xE0002014) -- CPU_WriteMem(4 bytes @ 0xE0002018) -- CPU_WriteMem(4 bytes @ 0xE000201C) (0011ms, 0757ms total)
T06AC 000:989 JLINK_IsHalted()  returns FALSE (0002ms, 0768ms total)
T06AC 001:042 JLINK_IsHalted() -- CPU_ReadMem(2 bytes @ 0x20000000)  returns TRUE (0012ms, 0769ms total)
T06AC 001:054 JLINK_ReadReg(R15)  returns 0x20000000 (0000ms, 0769ms total)
T06AC 001:054 JLINK_ClrBPEx(BPHandle = 0x00000005)  returns 0x00 (0000ms, 0769ms total)
T06AC 001:054 JLINK_ReadReg(R0)  returns 0x00000000 (0000ms, 0769ms total)
T06AC 001:055 JLINK_WriteMem(0x20000164, 0x0400 Bytes, ...) -- Data:  4F F0 01 00 B8 49 08 70 24 E0 B6 48 D0 F8 1A 00 ... -- CPU_WriteMem(1024 bytes @ 0x20000164)  returns 0x400 (0030ms, 0769ms total)
T06AC 001:085 JLINK_WriteReg(R0, 0x08000400)  returns 0x00 (0000ms, 0799ms total)
T06AC 001:085 JLINK_WriteReg(R1, 0x00000400)  returns 0x00 (0000ms, 0799ms total)
T06AC 001:085 JLINK_WriteReg(R2, 0x20000164)  returns 0x00 (0000ms, 0799ms total)
T06AC 001:085 JLINK_WriteReg(R3, 0x00000000)  returns 0x00 (0000ms, 0799ms total)
T06AC 001:085 JLINK_WriteReg(R4, 0x00000000)  returns 0x00 (0000ms, 0799ms total)
T06AC 001:085 JLINK_WriteReg(R5, 0x00000000)  returns 0x00 (0000ms, 0799ms total)
T06AC 001:085 JLINK_WriteReg(R6, 0x00000000)  returns 0x00 (0000ms, 0799ms total)
T06AC 001:085 JLINK_WriteReg(R7, 0x00000000)  returns 0x00 (0000ms, 0799ms total)
T06AC 001:085 JLINK_WriteReg(R8, 0x00000000)  returns 0x00 (0000ms, 0799ms total)
T06AC 001:085 JLINK_WriteReg(R9, 0x20000160)  returns 0x00 (0000ms, 0799ms total)
T06AC 001:085 JLINK_WriteReg(R10, 0x00000000)  returns 0x00 (0000ms, 0799ms total)
T06AC 001:085 JLINK_WriteReg(R11, 0x00000000)  returns 0x00 (0000ms, 0799ms total)
T06AC 001:085 JLINK_WriteReg(R12, 0x00000000)  returns 0x00 (0000ms, 0799ms total)
T06AC 001:085 JLINK_WriteReg(R13, 0x20000800)  returns 0x00 (0000ms, 0799ms total)
T06AC 001:085 JLINK_WriteReg(R14, 0x20000001)  returns 0x00 (0000ms, 0799ms total)
T06AC 001:085 JLINK_WriteReg(R15, 0x200000F4)  returns 0x00 (0000ms, 0799ms total)
T06AC 001:085 JLINK_WriteReg(XPSR, 0x01000000)  returns 0x00 (0000ms, 0799ms total)
T06AC 001:085 JLINK_WriteReg(MSP, 0x20000800)  returns 0x00 (0000ms, 0799ms total)
T06AC 001:085 JLINK_WriteReg(PSP, 0x20000800)  returns 0x00 (0000ms, 0799ms total)
T06AC 001:085 JLINK_WriteReg(BASEPRI, 0x00000000)  returns 0x00 (0000ms, 0799ms total)
T06AC 001:085 JLINK_WriteReg(CONTROL, 0x00000000)  returns 0x00 (0000ms, 0799ms total)
T06AC 001:085 JLINK_WriteReg(FAULTMASK, 0x00000000)  returns 0x00 (0000ms, 0799ms total)
T06AC 001:085 JLINK_WriteReg(BASEPRI_MAX, 0x00000000)  returns 0x00 (0000ms, 0799ms total)
T06AC 001:085 JLINK_SetBPEx(Addr = 0x20000000, Type = 0xFFFFFFF2)  returns 0x00000006 (0000ms, 0799ms total)
T06AC 001:085 JLINK_Go() -- CPU_WriteMem(4 bytes @ 0xE0002008) -- CPU_WriteMem(4 bytes @ 0xE000200C) -- CPU_WriteMem(4 bytes @ 0xE0002010) -- CPU_WriteMem(4 bytes @ 0xE0002014) -- CPU_WriteMem(4 bytes @ 0xE0002018) -- CPU_WriteMem(4 bytes @ 0xE000201C) (0012ms, 0799ms total)
T06AC 001:097 JLINK_IsHalted()  returns FALSE (0001ms, 0811ms total)
T06AC 001:149 JLINK_IsHalted() -- CPU_ReadMem(2 bytes @ 0x20000000)  returns TRUE (0011ms, 0811ms total)
T06AC 001:160 JLINK_ReadReg(R15)  returns 0x20000000 (0000ms, 0811ms total)
T06AC 001:160 JLINK_ClrBPEx(BPHandle = 0x00000006)  returns 0x00 (0000ms, 0811ms total)
T06AC 001:160 JLINK_ReadReg(R0)  returns 0x00000000 (0000ms, 0811ms total)
T06AC 001:160 JLINK_WriteMem(0x20000164, 0x0400 Bytes, ...) -- Data:  40 B9 4F F0 00 00 5E 49 08 70 4F F0 05 00 07 F0 ... -- CPU_WriteMem(1024 bytes @ 0x20000164)  returns 0x400 (0030ms, 0811ms total)
T06AC 001:190 JLINK_WriteReg(R0, 0x08000800)  returns 0x00 (0000ms, 0841ms total)
T06AC 001:190 JLINK_WriteReg(R1, 0x00000400)  returns 0x00 (0000ms, 0841ms total)
T06AC 001:190 JLINK_WriteReg(R2, 0x20000164)  returns 0x00 (0000ms, 0841ms total)
T06AC 001:190 JLINK_WriteReg(R3, 0x00000000)  returns 0x00 (0000ms, 0841ms total)
T06AC 001:190 JLINK_WriteReg(R4, 0x00000000)  returns 0x00 (0000ms, 0841ms total)
T06AC 001:190 JLINK_WriteReg(R5, 0x00000000)  returns 0x00 (0000ms, 0841ms total)
T06AC 001:190 JLINK_WriteReg(R6, 0x00000000)  returns 0x00 (0000ms, 0841ms total)
T06AC 001:190 JLINK_WriteReg(R7, 0x00000000)  returns 0x00 (0000ms, 0841ms total)
T06AC 001:190 JLINK_WriteReg(R8, 0x00000000)  returns 0x00 (0001ms, 0841ms total)
T06AC 001:191 JLINK_WriteReg(R9, 0x20000160)  returns 0x00 (0000ms, 0842ms total)
T06AC 001:191 JLINK_WriteReg(R10, 0x00000000)  returns 0x00 (0000ms, 0842ms total)
T06AC 001:191 JLINK_WriteReg(R11, 0x00000000)  returns 0x00 (0000ms, 0842ms total)
T06AC 001:191 JLINK_WriteReg(R12, 0x00000000)  returns 0x00 (0000ms, 0842ms total)
T06AC 001:191 JLINK_WriteReg(R13, 0x20000800)  returns 0x00 (0000ms, 0842ms total)
T06AC 001:191 JLINK_WriteReg(R14, 0x20000001)  returns 0x00 (0000ms, 0842ms total)
T06AC 001:191 JLINK_WriteReg(R15, 0x200000F4)  returns 0x00 (0000ms, 0842ms total)
T06AC 001:191 JLINK_WriteReg(XPSR, 0x01000000)  returns 0x00 (0000ms, 0842ms total)
T06AC 001:191 JLINK_WriteReg(MSP, 0x20000800)  returns 0x00 (0000ms, 0842ms total)
T06AC 001:191 JLINK_WriteReg(PSP, 0x20000800)  returns 0x00 (0000ms, 0842ms total)
T06AC 001:191 JLINK_WriteReg(BASEPRI, 0x00000000)  returns 0x00 (0000ms, 0842ms total)
T06AC 001:191 JLINK_WriteReg(CONTROL, 0x00000000)  returns 0x00 (0000ms, 0842ms total)
T06AC 001:191 JLINK_WriteReg(FAULTMASK, 0x00000000)  returns 0x00 (0000ms, 0842ms total)
T06AC 001:191 JLINK_WriteReg(BASEPRI_MAX, 0x00000000)  returns 0x00 (0000ms, 0842ms total)
T06AC 001:191 JLINK_SetBPEx(Addr = 0x20000000, Type = 0xFFFFFFF2)  returns 0x00000007 (0000ms, 0842ms total)
T06AC 001:191 JLINK_Go() -- CPU_WriteMem(4 bytes @ 0xE0002008) -- CPU_WriteMem(4 bytes @ 0xE000200C) -- CPU_WriteMem(4 bytes @ 0xE0002010) -- CPU_WriteMem(4 bytes @ 0xE0002014) -- CPU_WriteMem(4 bytes @ 0xE0002018) -- CPU_WriteMem(4 bytes @ 0xE000201C) (0012ms, 0842ms total)
T06AC 001:203 JLINK_IsHalted()  returns FALSE (0000ms, 0854ms total)
T06AC 001:254 JLINK_IsHalted() -- CPU_ReadMem(2 bytes @ 0x20000000)  returns TRUE (0010ms, 0854ms total)
T06AC 001:264 JLINK_ReadReg(R15)  returns 0x20000000 (0000ms, 0854ms total)
T06AC 001:264 JLINK_ClrBPEx(BPHandle = 0x00000007)  returns 0x00 (0000ms, 0854ms total)
T06AC 001:264 JLINK_ReadReg(R0)  returns 0x00000000 (0000ms, 0854ms total)
T06AC 001:265 JLINK_WriteMem(0x20000164, 0x0400 Bytes, ...) -- Data:  70 47 00 00 28 00 00 20 2C 00 00 20 30 00 00 20 ... -- CPU_WriteMem(1024 bytes @ 0x20000164)  returns 0x400 (0032ms, 0854ms total)
T06AC 001:297 JLINK_WriteReg(R0, 0x08000C00)  returns 0x00 (0000ms, 0886ms total)
T06AC 001:297 JLINK_WriteReg(R1, 0x00000400)  returns 0x00 (0000ms, 0886ms total)
T06AC 001:297 JLINK_WriteReg(R2, 0x20000164)  returns 0x00 (0000ms, 0886ms total)
T06AC 001:297 JLINK_WriteReg(R3, 0x00000000)  returns 0x00 (0000ms, 0886ms total)
T06AC 001:297 JLINK_WriteReg(R4, 0x00000000)  returns 0x00 (0000ms, 0886ms total)
T06AC 001:297 JLINK_WriteReg(R5, 0x00000000)  returns 0x00 (0000ms, 0886ms total)
T06AC 001:297 JLINK_WriteReg(R6, 0x00000000)  returns 0x00 (0000ms, 0886ms total)
T06AC 001:297 JLINK_WriteReg(R7, 0x00000000)  returns 0x00 (0000ms, 0886ms total)
T06AC 001:297 JLINK_WriteReg(R8, 0x00000000)  returns 0x00 (0000ms, 0886ms total)
T06AC 001:297 JLINK_WriteReg(R9, 0x20000160)  returns 0x00 (0000ms, 0886ms total)
T06AC 001:297 JLINK_WriteReg(R10, 0x00000000)  returns 0x00 (0000ms, 0886ms total)
T06AC 001:297 JLINK_WriteReg(R11, 0x00000000)  returns 0x00 (0000ms, 0886ms total)
T06AC 001:297 JLINK_WriteReg(R12, 0x00000000)  returns 0x00 (0000ms, 0886ms total)
T06AC 001:297 JLINK_WriteReg(R13, 0x20000800)  returns 0x00 (0000ms, 0886ms total)
T06AC 001:297 JLINK_WriteReg(R14, 0x20000001)  returns 0x00 (0000ms, 0886ms total)
T06AC 001:297 JLINK_WriteReg(R15, 0x200000F4)  returns 0x00 (0000ms, 0886ms total)
T06AC 001:297 JLINK_WriteReg(XPSR, 0x01000000)  returns 0x00 (0000ms, 0886ms total)
T06AC 001:297 JLINK_WriteReg(MSP, 0x20000800)  returns 0x00 (0000ms, 0886ms total)
T06AC 001:297 JLINK_WriteReg(PSP, 0x20000800)  returns 0x00 (0000ms, 0886ms total)
T06AC 001:297 JLINK_WriteReg(BASEPRI, 0x00000000)  returns 0x00 (0000ms, 0886ms total)
T06AC 001:297 JLINK_WriteReg(CONTROL, 0x00000000)  returns 0x00 (0000ms, 0886ms total)
T06AC 001:297 JLINK_WriteReg(FAULTMASK, 0x00000000)  returns 0x00 (0000ms, 0886ms total)
T06AC 001:297 JLINK_WriteReg(BASEPRI_MAX, 0x00000000)  returns 0x00 (0000ms, 0886ms total)
T06AC 001:297 JLINK_SetBPEx(Addr = 0x20000000, Type = 0xFFFFFFF2)  returns 0x00000008 (0000ms, 0886ms total)
T06AC 001:297 JLINK_Go() -- CPU_WriteMem(4 bytes @ 0xE0002008) -- CPU_WriteMem(4 bytes @ 0xE000200C) -- CPU_WriteMem(4 bytes @ 0xE0002010) -- CPU_WriteMem(4 bytes @ 0xE0002014) -- CPU_WriteMem(4 bytes @ 0xE0002018) -- CPU_WriteMem(4 bytes @ 0xE000201C) (0012ms, 0886ms total)
T06AC 001:309 JLINK_IsHalted()  returns FALSE (0001ms, 0898ms total)
T06AC 001:361 JLINK_IsHalted() -- CPU_ReadMem(2 bytes @ 0x20000000)  returns TRUE (0010ms, 0898ms total)
T06AC 001:371 JLINK_ReadReg(R15)  returns 0x20000000 (0000ms, 0898ms total)
T06AC 001:371 JLINK_ClrBPEx(BPHandle = 0x00000008)  returns 0x00 (0000ms, 0898ms total)
T06AC 001:371 JLINK_ReadReg(R0)  returns 0x00000000 (0000ms, 0898ms total)
T06AC 001:371 JLINK_WriteMem(0x20000164, 0x0400 Bytes, ...) -- Data:  E0 22 10 69 10 F0 01 0F 02 D0 10 F4 80 3F F6 D0 ... -- CPU_WriteMem(1024 bytes @ 0x20000164)  returns 0x400 (0031ms, 0898ms total)
T06AC 001:402 JLINK_WriteReg(R0, 0x08001000)  returns 0x00 (0000ms, 0929ms total)
T06AC 001:402 JLINK_WriteReg(R1, 0x00000400)  returns 0x00 (0000ms, 0929ms total)
T06AC 001:402 JLINK_WriteReg(R2, 0x20000164)  returns 0x00 (0000ms, 0929ms total)
T06AC 001:402 JLINK_WriteReg(R3, 0x00000000)  returns 0x00 (0001ms, 0929ms total)
T06AC 001:403 JLINK_WriteReg(R4, 0x00000000)  returns 0x00 (0000ms, 0930ms total)
T06AC 001:403 JLINK_WriteReg(R5, 0x00000000)  returns 0x00 (0000ms, 0930ms total)
T06AC 001:403 JLINK_WriteReg(R6, 0x00000000)  returns 0x00 (0000ms, 0930ms total)
T06AC 001:403 JLINK_WriteReg(R7, 0x00000000)  returns 0x00 (0000ms, 0930ms total)
T06AC 001:403 JLINK_WriteReg(R8, 0x00000000)  returns 0x00 (0000ms, 0930ms total)
T06AC 001:403 JLINK_WriteReg(R9, 0x20000160)  returns 0x00 (0000ms, 0930ms total)
T06AC 001:403 JLINK_WriteReg(R10, 0x00000000)  returns 0x00 (0000ms, 0930ms total)
T06AC 001:403 JLINK_WriteReg(R11, 0x00000000)  returns 0x00 (0000ms, 0930ms total)
T06AC 001:403 JLINK_WriteReg(R12, 0x00000000)  returns 0x00 (0000ms, 0930ms total)
T06AC 001:403 JLINK_WriteReg(R13, 0x20000800)  returns 0x00 (0000ms, 0930ms total)
T06AC 001:403 JLINK_WriteReg(R14, 0x20000001)  returns 0x00 (0000ms, 0930ms total)
T06AC 001:403 JLINK_WriteReg(R15, 0x200000F4)  returns 0x00 (0000ms, 0930ms total)
T06AC 001:403 JLINK_WriteReg(XPSR, 0x01000000)  returns 0x00 (0000ms, 0930ms total)
T06AC 001:403 JLINK_WriteReg(MSP, 0x20000800)  returns 0x00 (0000ms, 0930ms total)
T06AC 001:403 JLINK_WriteReg(PSP, 0x20000800)  returns 0x00 (0000ms, 0930ms total)
T06AC 001:403 JLINK_WriteReg(BASEPRI, 0x00000000)  returns 0x00 (0000ms, 0930ms total)
T06AC 001:403 JLINK_WriteReg(CONTROL, 0x00000000)  returns 0x00 (0000ms, 0930ms total)
T06AC 001:403 JLINK_WriteReg(FAULTMASK, 0x00000000)  returns 0x00 (0000ms, 0930ms total)
T06AC 001:403 JLINK_WriteReg(BASEPRI_MAX, 0x00000000)  returns 0x00 (0000ms, 0930ms total)
T06AC 001:403 JLINK_SetBPEx(Addr = 0x20000000, Type = 0xFFFFFFF2)  returns 0x00000009 (0000ms, 0930ms total)
T06AC 001:403 JLINK_Go() -- CPU_WriteMem(4 bytes @ 0xE0002008) -- CPU_WriteMem(4 bytes @ 0xE000200C) -- CPU_WriteMem(4 bytes @ 0xE0002010) -- CPU_WriteMem(4 bytes @ 0xE0002014) -- CPU_WriteMem(4 bytes @ 0xE0002018) -- CPU_WriteMem(4 bytes @ 0xE000201C) (0011ms, 0930ms total)
T06AC 001:414 JLINK_IsHalted()  returns FALSE (0001ms, 0941ms total)
T06AC 001:466 JLINK_IsHalted() -- CPU_ReadMem(2 bytes @ 0x20000000)  returns TRUE (0010ms, 0941ms total)
T06AC 001:476 JLINK_ReadReg(R15)  returns 0x20000000 (0000ms, 0941ms total)
T06AC 001:476 JLINK_ClrBPEx(BPHandle = 0x00000009)  returns 0x00 (0000ms, 0941ms total)
T06AC 001:476 JLINK_ReadReg(R0)  returns 0x00000000 (0000ms, 0941ms total)
T06AC 001:477 JLINK_WriteMem(0x20000164, 0x0400 Bytes, ...) -- Data:  04 46 FF F7 D3 FE 20 46 FF F7 E5 FE CC 20 FF F7 ... -- CPU_WriteMem(1024 bytes @ 0x20000164)  returns 0x400 (0032ms, 0941ms total)
T06AC 001:509 JLINK_WriteReg(R0, 0x08001400)  returns 0x00 (0000ms, 0973ms total)
T06AC 001:509 JLINK_WriteReg(R1, 0x00000400)  returns 0x00 (0000ms, 0973ms total)
T06AC 001:509 JLINK_WriteReg(R2, 0x20000164)  returns 0x00 (0000ms, 0973ms total)
T06AC 001:509 JLINK_WriteReg(R3, 0x00000000)  returns 0x00 (0000ms, 0973ms total)
T06AC 001:509 JLINK_WriteReg(R4, 0x00000000)  returns 0x00 (0000ms, 0973ms total)
T06AC 001:509 JLINK_WriteReg(R5, 0x00000000)  returns 0x00 (0000ms, 0973ms total)
T06AC 001:509 JLINK_WriteReg(R6, 0x00000000)  returns 0x00 (0000ms, 0973ms total)
T06AC 001:509 JLINK_WriteReg(R7, 0x00000000)  returns 0x00 (0000ms, 0973ms total)
T06AC 001:509 JLINK_WriteReg(R8, 0x00000000)  returns 0x00 (0000ms, 0973ms total)
T06AC 001:509 JLINK_WriteReg(R9, 0x20000160)  returns 0x00 (0000ms, 0973ms total)
T06AC 001:509 JLINK_WriteReg(R10, 0x00000000)  returns 0x00 (0000ms, 0973ms total)
T06AC 001:509 JLINK_WriteReg(R11, 0x00000000)  returns 0x00 (0000ms, 0973ms total)
T06AC 001:509 JLINK_WriteReg(R12, 0x00000000)  returns 0x00 (0000ms, 0973ms total)
T06AC 001:509 JLINK_WriteReg(R13, 0x20000800)  returns 0x00 (0000ms, 0973ms total)
T06AC 001:509 JLINK_WriteReg(R14, 0x20000001)  returns 0x00 (0000ms, 0973ms total)
T06AC 001:509 JLINK_WriteReg(R15, 0x200000F4)  returns 0x00 (0000ms, 0973ms total)
T06AC 001:509 JLINK_WriteReg(XPSR, 0x01000000)  returns 0x00 (0000ms, 0973ms total)
T06AC 001:509 JLINK_WriteReg(MSP, 0x20000800)  returns 0x00 (0000ms, 0973ms total)
T06AC 001:509 JLINK_WriteReg(PSP, 0x20000800)  returns 0x00 (0000ms, 0973ms total)
T06AC 001:509 JLINK_WriteReg(BASEPRI, 0x00000000)  returns 0x00 (0000ms, 0973ms total)
T06AC 001:509 JLINK_WriteReg(CONTROL, 0x00000000)  returns 0x00 (0000ms, 0973ms total)
T06AC 001:509 JLINK_WriteReg(FAULTMASK, 0x00000000)  returns 0x00 (0000ms, 0973ms total)
T06AC 001:509 JLINK_WriteReg(BASEPRI_MAX, 0x00000000)  returns 0x00 (0000ms, 0973ms total)
T06AC 001:509 JLINK_SetBPEx(Addr = 0x20000000, Type = 0xFFFFFFF2)  returns 0x0000000A (0000ms, 0973ms total)
T06AC 001:509 JLINK_Go() -- CPU_WriteMem(4 bytes @ 0xE0002008) -- CPU_WriteMem(4 bytes @ 0xE000200C) -- CPU_WriteMem(4 bytes @ 0xE0002010) -- CPU_WriteMem(4 bytes @ 0xE0002014) -- CPU_WriteMem(4 bytes @ 0xE0002018) -- CPU_WriteMem(4 bytes @ 0xE000201C) (0012ms, 0973ms total)
T06AC 001:521 JLINK_IsHalted()  returns FALSE (0001ms, 0985ms total)
T06AC 001:573 JLINK_IsHalted() -- CPU_ReadMem(2 bytes @ 0x20000000)  returns TRUE (0010ms, 0985ms total)
T06AC 001:583 JLINK_ReadReg(R15)  returns 0x20000000 (0000ms, 0985ms total)
T06AC 001:583 JLINK_ClrBPEx(BPHandle = 0x0000000A)  returns 0x00 (0000ms, 0985ms total)
T06AC 001:583 JLINK_ReadReg(R0)  returns 0x00000000 (0000ms, 0985ms total)
T06AC 001:583 JLINK_WriteMem(0x20000164, 0x0400 Bytes, ...) -- Data:  4F F0 0C 00 AD F8 0A 00 69 46 68 48 09 F0 38 F8 ... -- CPU_WriteMem(1024 bytes @ 0x20000164)  returns 0x400 (0031ms, 0985ms total)
T06AC 001:614 JLINK_WriteReg(R0, 0x08001800)  returns 0x00 (0000ms, 1016ms total)
T06AC 001:615 JLINK_WriteReg(R1, 0x00000400)  returns 0x00 (0000ms, 1017ms total)
T06AC 001:615 JLINK_WriteReg(R2, 0x20000164)  returns 0x00 (0000ms, 1017ms total)
T06AC 001:615 JLINK_WriteReg(R3, 0x00000000)  returns 0x00 (0000ms, 1017ms total)
T06AC 001:615 JLINK_WriteReg(R4, 0x00000000)  returns 0x00 (0000ms, 1017ms total)
T06AC 001:615 JLINK_WriteReg(R5, 0x00000000)  returns 0x00 (0000ms, 1017ms total)
T06AC 001:615 JLINK_WriteReg(R6, 0x00000000)  returns 0x00 (0000ms, 1017ms total)
T06AC 001:615 JLINK_WriteReg(R7, 0x00000000)  returns 0x00 (0000ms, 1017ms total)
T06AC 001:615 JLINK_WriteReg(R8, 0x00000000)  returns 0x00 (0000ms, 1017ms total)
T06AC 001:615 JLINK_WriteReg(R9, 0x20000160)  returns 0x00 (0000ms, 1017ms total)
T06AC 001:615 JLINK_WriteReg(R10, 0x00000000)  returns 0x00 (0000ms, 1017ms total)
T06AC 001:615 JLINK_WriteReg(R11, 0x00000000)  returns 0x00 (0000ms, 1017ms total)
T06AC 001:615 JLINK_WriteReg(R12, 0x00000000)  returns 0x00 (0000ms, 1017ms total)
T06AC 001:615 JLINK_WriteReg(R13, 0x20000800)  returns 0x00 (0000ms, 1017ms total)
T06AC 001:615 JLINK_WriteReg(R14, 0x20000001)  returns 0x00 (0000ms, 1017ms total)
T06AC 001:615 JLINK_WriteReg(R15, 0x200000F4)  returns 0x00 (0000ms, 1017ms total)
T06AC 001:615 JLINK_WriteReg(XPSR, 0x01000000)  returns 0x00 (0000ms, 1017ms total)
T06AC 001:615 JLINK_WriteReg(MSP, 0x20000800)  returns 0x00 (0000ms, 1017ms total)
T06AC 001:615 JLINK_WriteReg(PSP, 0x20000800)  returns 0x00 (0000ms, 1017ms total)
T06AC 001:615 JLINK_WriteReg(BASEPRI, 0x00000000)  returns 0x00 (0000ms, 1017ms total)
T06AC 001:615 JLINK_WriteReg(CONTROL, 0x00000000)  returns 0x00 (0000ms, 1017ms total)
T06AC 001:615 JLINK_WriteReg(FAULTMASK, 0x00000000)  returns 0x00 (0000ms, 1017ms total)
T06AC 001:615 JLINK_WriteReg(BASEPRI_MAX, 0x00000000)  returns 0x00 (0000ms, 1017ms total)
T06AC 001:615 JLINK_SetBPEx(Addr = 0x20000000, Type = 0xFFFFFFF2)  returns 0x0000000B (0000ms, 1017ms total)
T06AC 001:615 JLINK_Go() -- CPU_WriteMem(4 bytes @ 0xE0002008) -- CPU_WriteMem(4 bytes @ 0xE000200C) -- CPU_WriteMem(4 bytes @ 0xE0002010) -- CPU_WriteMem(4 bytes @ 0xE0002014) -- CPU_WriteMem(4 bytes @ 0xE0002018) -- CPU_WriteMem(4 bytes @ 0xE000201C) (0011ms, 1017ms total)
T06AC 001:626 JLINK_IsHalted()  returns FALSE (0001ms, 1028ms total)
T06AC 001:678 JLINK_IsHalted() -- CPU_ReadMem(2 bytes @ 0x20000000)  returns TRUE (0010ms, 1028ms total)
T06AC 001:688 JLINK_ReadReg(R15)  returns 0x20000000 (0000ms, 1028ms total)
T06AC 001:688 JLINK_ClrBPEx(BPHandle = 0x0000000B)  returns 0x00 (0000ms, 1028ms total)
T06AC 001:688 JLINK_ReadReg(R0)  returns 0x00000000 (0000ms, 1028ms total)
T06AC 001:689 JLINK_WriteMem(0x20000164, 0x0400 Bytes, ...) -- Data:  01 00 C5 B2 18 2D E4 DB 20 46 70 BD 00 10 01 40 ... -- CPU_WriteMem(1024 bytes @ 0x20000164)  returns 0x400 (0032ms, 1028ms total)
T06AC 001:721 JLINK_WriteReg(R0, 0x08001C00)  returns 0x00 (0000ms, 1060ms total)
T06AC 001:721 JLINK_WriteReg(R1, 0x00000400)  returns 0x00 (0000ms, 1060ms total)
T06AC 001:721 JLINK_WriteReg(R2, 0x20000164)  returns 0x00 (0000ms, 1060ms total)
T06AC 001:721 JLINK_WriteReg(R3, 0x00000000)  returns 0x00 (0000ms, 1060ms total)
T06AC 001:721 JLINK_WriteReg(R4, 0x00000000)  returns 0x00 (0000ms, 1060ms total)
T06AC 001:721 JLINK_WriteReg(R5, 0x00000000)  returns 0x00 (0000ms, 1060ms total)
T06AC 001:721 JLINK_WriteReg(R6, 0x00000000)  returns 0x00 (0000ms, 1060ms total)
T06AC 001:721 JLINK_WriteReg(R7, 0x00000000)  returns 0x00 (0000ms, 1060ms total)
T06AC 001:721 JLINK_WriteReg(R8, 0x00000000)  returns 0x00 (0000ms, 1060ms total)
T06AC 001:721 JLINK_WriteReg(R9, 0x20000160)  returns 0x00 (0000ms, 1060ms total)
T06AC 001:721 JLINK_WriteReg(R10, 0x00000000)  returns 0x00 (0000ms, 1060ms total)
T06AC 001:721 JLINK_WriteReg(R11, 0x00000000)  returns 0x00 (0000ms, 1060ms total)
T06AC 001:721 JLINK_WriteReg(R12, 0x00000000)  returns 0x00 (0000ms, 1060ms total)
T06AC 001:721 JLINK_WriteReg(R13, 0x20000800)  returns 0x00 (0000ms, 1060ms total)
T06AC 001:721 JLINK_WriteReg(R14, 0x20000001)  returns 0x00 (0000ms, 1060ms total)
T06AC 001:721 JLINK_WriteReg(R15, 0x200000F4)  returns 0x00 (0000ms, 1060ms total)
T06AC 001:721 JLINK_WriteReg(XPSR, 0x01000000)  returns 0x00 (0000ms, 1060ms total)
T06AC 001:721 JLINK_WriteReg(MSP, 0x20000800)  returns 0x00 (0000ms, 1060ms total)
T06AC 001:721 JLINK_WriteReg(PSP, 0x20000800)  returns 0x00 (0000ms, 1060ms total)
T06AC 001:721 JLINK_WriteReg(BASEPRI, 0x00000000)  returns 0x00 (0000ms, 1060ms total)
T06AC 001:721 JLINK_WriteReg(CONTROL, 0x00000000)  returns 0x00 (0000ms, 1060ms total)
T06AC 001:721 JLINK_WriteReg(FAULTMASK, 0x00000000)  returns 0x00 (0000ms, 1060ms total)
T06AC 001:721 JLINK_WriteReg(BASEPRI_MAX, 0x00000000)  returns 0x00 (0000ms, 1060ms total)
T06AC 001:722 JLINK_SetBPEx(Addr = 0x20000000, Type = 0xFFFFFFF2)  returns 0x0000000C (0000ms, 1060ms total)
T06AC 001:722 JLINK_Go() -- CPU_WriteMem(4 bytes @ 0xE0002008) -- CPU_WriteMem(4 bytes @ 0xE000200C) -- CPU_WriteMem(4 bytes @ 0xE0002010) -- CPU_WriteMem(4 bytes @ 0xE0002014) -- CPU_WriteMem(4 bytes @ 0xE0002018) -- CPU_WriteMem(4 bytes @ 0xE000201C) (0011ms, 1060ms total)
T06AC 001:733 JLINK_IsHalted()  returns FALSE (0001ms, 1071ms total)
T06AC 001:785 JLINK_IsHalted() -- CPU_ReadMem(2 bytes @ 0x20000000)  returns TRUE (0010ms, 1071ms total)
T06AC 001:795 JLINK_ReadReg(R15)  returns 0x20000000 (0000ms, 1071ms total)
T06AC 001:795 JLINK_ClrBPEx(BPHandle = 0x0000000C)  returns 0x00 (0000ms, 1071ms total)
T06AC 001:795 JLINK_ReadReg(R0)  returns 0x00000000 (0000ms, 1071ms total)
T06AC 001:795 JLINK_WriteMem(0x20000164, 0x0400 Bytes, ...) -- Data:  0C 46 16 46 4F F0 10 01 35 48 08 F0 4C F9 03 20 ... -- CPU_WriteMem(1024 bytes @ 0x20000164)  returns 0x400 (0032ms, 1071ms total)
T06AC 001:827 JLINK_WriteReg(R0, 0x08002000)  returns 0x00 (0000ms, 1103ms total)
T06AC 001:827 JLINK_WriteReg(R1, 0x00000400)  returns 0x00 (0000ms, 1103ms total)
T06AC 001:827 JLINK_WriteReg(R2, 0x20000164)  returns 0x00 (0000ms, 1103ms total)
T06AC 001:827 JLINK_WriteReg(R3, 0x00000000)  returns 0x00 (0000ms, 1103ms total)
T06AC 001:827 JLINK_WriteReg(R4, 0x00000000)  returns 0x00 (0000ms, 1103ms total)
T06AC 001:827 JLINK_WriteReg(R5, 0x00000000)  returns 0x00 (0000ms, 1103ms total)
T06AC 001:827 JLINK_WriteReg(R6, 0x00000000)  returns 0x00 (0000ms, 1103ms total)
T06AC 001:827 JLINK_WriteReg(R7, 0x00000000)  returns 0x00 (0000ms, 1103ms total)
T06AC 001:827 JLINK_WriteReg(R8, 0x00000000)  returns 0x00 (0000ms, 1103ms total)
T06AC 001:827 JLINK_WriteReg(R9, 0x20000160)  returns 0x00 (0000ms, 1103ms total)
T06AC 001:827 JLINK_WriteReg(R10, 0x00000000)  returns 0x00 (0000ms, 1103ms total)
T06AC 001:827 JLINK_WriteReg(R11, 0x00000000)  returns 0x00 (0000ms, 1103ms total)
T06AC 001:827 JLINK_WriteReg(R12, 0x00000000)  returns 0x00 (0000ms, 1103ms total)
T06AC 001:827 JLINK_WriteReg(R13, 0x20000800)  returns 0x00 (0000ms, 1103ms total)
T06AC 001:827 JLINK_WriteReg(R14, 0x20000001)  returns 0x00 (0000ms, 1103ms total)
T06AC 001:827 JLINK_WriteReg(R15, 0x200000F4)  returns 0x00 (0000ms, 1103ms total)
T06AC 001:827 JLINK_WriteReg(XPSR, 0x01000000)  returns 0x00 (0000ms, 1103ms total)
T06AC 001:827 JLINK_WriteReg(MSP, 0x20000800)  returns 0x00 (0000ms, 1103ms total)
T06AC 001:827 JLINK_WriteReg(PSP, 0x20000800)  returns 0x00 (0000ms, 1103ms total)
T06AC 001:827 JLINK_WriteReg(BASEPRI, 0x00000000)  returns 0x00 (0000ms, 1103ms total)
T06AC 001:827 JLINK_WriteReg(CONTROL, 0x00000000)  returns 0x00 (0000ms, 1103ms total)
T06AC 001:827 JLINK_WriteReg(FAULTMASK, 0x00000000)  returns 0x00 (0000ms, 1103ms total)
T06AC 001:827 JLINK_WriteReg(BASEPRI_MAX, 0x00000000)  returns 0x00 (0000ms, 1103ms total)
T06AC 001:827 JLINK_SetBPEx(Addr = 0x20000000, Type = 0xFFFFFFF2)  returns 0x0000000D (0000ms, 1103ms total)
T06AC 001:827 JLINK_Go() -- CPU_WriteMem(4 bytes @ 0xE0002008) -- CPU_WriteMem(4 bytes @ 0xE000200C) -- CPU_WriteMem(4 bytes @ 0xE0002010) -- CPU_WriteMem(4 bytes @ 0xE0002014) -- CPU_WriteMem(4 bytes @ 0xE0002018) -- CPU_WriteMem(4 bytes @ 0xE000201C) (0012ms, 1103ms total)
T06AC 001:839 JLINK_IsHalted()  returns FALSE (0001ms, 1115ms total)
T06AC 001:891 JLINK_IsHalted() -- CPU_ReadMem(2 bytes @ 0x20000000)  returns TRUE (0010ms, 1115ms total)
T06AC 001:901 JLINK_ReadReg(R15)  returns 0x20000000 (0000ms, 1115ms total)
T06AC 001:901 JLINK_ClrBPEx(BPHandle = 0x0000000D)  returns 0x00 (0000ms, 1115ms total)
T06AC 001:901 JLINK_ReadReg(R0)  returns 0x00000000 (0000ms, 1115ms total)
T06AC 001:902 JLINK_WriteMem(0x20000164, 0x0400 Bytes, ...) -- Data:  F2 F1 40 EA 01 10 89 49 48 71 89 48 80 78 11 46 ... -- CPU_WriteMem(1024 bytes @ 0x20000164)  returns 0x400 (0030ms, 1115ms total)
T06AC 001:932 JLINK_WriteReg(R0, 0x08002400)  returns 0x00 (0000ms, 1145ms total)
T06AC 001:932 JLINK_WriteReg(R1, 0x00000400)  returns 0x00 (0000ms, 1145ms total)
T06AC 001:932 JLINK_WriteReg(R2, 0x20000164)  returns 0x00 (0000ms, 1145ms total)
T06AC 001:932 JLINK_WriteReg(R3, 0x00000000)  returns 0x00 (0000ms, 1145ms total)
T06AC 001:932 JLINK_WriteReg(R4, 0x00000000)  returns 0x00 (0000ms, 1145ms total)
T06AC 001:932 JLINK_WriteReg(R5, 0x00000000)  returns 0x00 (0000ms, 1145ms total)
T06AC 001:932 JLINK_WriteReg(R6, 0x00000000)  returns 0x00 (0000ms, 1145ms total)
T06AC 001:932 JLINK_WriteReg(R7, 0x00000000)  returns 0x00 (0000ms, 1145ms total)
T06AC 001:932 JLINK_WriteReg(R8, 0x00000000)  returns 0x00 (0000ms, 1145ms total)
T06AC 001:932 JLINK_WriteReg(R9, 0x20000160)  returns 0x00 (0000ms, 1145ms total)
T06AC 001:932 JLINK_WriteReg(R10, 0x00000000)  returns 0x00 (0000ms, 1145ms total)
T06AC 001:932 JLINK_WriteReg(R11, 0x00000000)  returns 0x00 (0000ms, 1145ms total)
T06AC 001:932 JLINK_WriteReg(R12, 0x00000000)  returns 0x00 (0000ms, 1145ms total)
T06AC 001:932 JLINK_WriteReg(R13, 0x20000800)  returns 0x00 (0000ms, 1145ms total)
T06AC 001:932 JLINK_WriteReg(R14, 0x20000001)  returns 0x00 (0000ms, 1145ms total)
T06AC 001:932 JLINK_WriteReg(R15, 0x200000F4)  returns 0x00 (0000ms, 1145ms total)
T06AC 001:932 JLINK_WriteReg(XPSR, 0x01000000)  returns 0x00 (0000ms, 1145ms total)
T06AC 001:932 JLINK_WriteReg(MSP, 0x20000800)  returns 0x00 (0000ms, 1145ms total)
T06AC 001:932 JLINK_WriteReg(PSP, 0x20000800)  returns 0x00 (0000ms, 1145ms total)
T06AC 001:932 JLINK_WriteReg(BASEPRI, 0x00000000)  returns 0x00 (0001ms, 1145ms total)
T06AC 001:933 JLINK_WriteReg(CONTROL, 0x00000000)  returns 0x00 (0000ms, 1146ms total)
T06AC 001:933 JLINK_WriteReg(FAULTMASK, 0x00000000)  returns 0x00 (0000ms, 1146ms total)
T06AC 001:933 JLINK_WriteReg(BASEPRI_MAX, 0x00000000)  returns 0x00 (0000ms, 1146ms total)
T06AC 001:933 JLINK_SetBPEx(Addr = 0x20000000, Type = 0xFFFFFFF2)  returns 0x0000000E (0000ms, 1146ms total)
T06AC 001:933 JLINK_Go() -- CPU_WriteMem(4 bytes @ 0xE0002008) -- CPU_WriteMem(4 bytes @ 0xE000200C) -- CPU_WriteMem(4 bytes @ 0xE0002010) -- CPU_WriteMem(4 bytes @ 0xE0002014) -- CPU_WriteMem(4 bytes @ 0xE0002018) -- CPU_WriteMem(4 bytes @ 0xE000201C) (0011ms, 1146ms total)
T06AC 001:944 JLINK_IsHalted()  returns FALSE (0001ms, 1157ms total)
T06AC 001:995 JLINK_IsHalted() -- CPU_ReadMem(2 bytes @ 0x20000000)  returns TRUE (0011ms, 1157ms total)
T06AC 002:006 JLINK_ReadReg(R15)  returns 0x20000000 (0000ms, 1157ms total)
T06AC 002:006 JLINK_ClrBPEx(BPHandle = 0x0000000E)  returns 0x00 (0000ms, 1157ms total)
T06AC 002:006 JLINK_ReadReg(R0)  returns 0x00000000 (0000ms, 1157ms total)
T06AC 002:006 JLINK_WriteMem(0x20000164, 0x0400 Bytes, ...) -- Data:  00 00 48 70 A5 49 08 70 4F F0 01 00 48 70 08 46 ... -- CPU_WriteMem(1024 bytes @ 0x20000164)  returns 0x400 (0031ms, 1157ms total)
T06AC 002:038 JLINK_WriteReg(R0, 0x08002800)  returns 0x00 (0000ms, 1188ms total)
T06AC 002:038 JLINK_WriteReg(R1, 0x00000400)  returns 0x00 (0000ms, 1188ms total)
T06AC 002:038 JLINK_WriteReg(R2, 0x20000164)  returns 0x00 (0000ms, 1188ms total)
T06AC 002:038 JLINK_WriteReg(R3, 0x00000000)  returns 0x00 (0000ms, 1188ms total)
T06AC 002:038 JLINK_WriteReg(R4, 0x00000000)  returns 0x00 (0000ms, 1188ms total)
T06AC 002:038 JLINK_WriteReg(R5, 0x00000000)  returns 0x00 (0000ms, 1188ms total)
T06AC 002:038 JLINK_WriteReg(R6, 0x00000000)  returns 0x00 (0000ms, 1188ms total)
T06AC 002:038 JLINK_WriteReg(R7, 0x00000000)  returns 0x00 (0000ms, 1188ms total)
T06AC 002:038 JLINK_WriteReg(R8, 0x00000000)  returns 0x00 (0000ms, 1188ms total)
T06AC 002:038 JLINK_WriteReg(R9, 0x20000160)  returns 0x00 (0000ms, 1188ms total)
T06AC 002:038 JLINK_WriteReg(R10, 0x00000000)  returns 0x00 (0000ms, 1188ms total)
T06AC 002:038 JLINK_WriteReg(R11, 0x00000000)  returns 0x00 (0000ms, 1188ms total)
T06AC 002:038 JLINK_WriteReg(R12, 0x00000000)  returns 0x00 (0000ms, 1188ms total)
T06AC 002:038 JLINK_WriteReg(R13, 0x20000800)  returns 0x00 (0000ms, 1188ms total)
T06AC 002:038 JLINK_WriteReg(R14, 0x20000001)  returns 0x00 (0000ms, 1188ms total)
T06AC 002:038 JLINK_WriteReg(R15, 0x200000F4)  returns 0x00 (0000ms, 1188ms total)
T06AC 002:038 JLINK_WriteReg(XPSR, 0x01000000)  returns 0x00 (0000ms, 1188ms total)
T06AC 002:038 JLINK_WriteReg(MSP, 0x20000800)  returns 0x00 (0000ms, 1188ms total)
T06AC 002:038 JLINK_WriteReg(PSP, 0x20000800)  returns 0x00 (0000ms, 1188ms total)
T06AC 002:038 JLINK_WriteReg(BASEPRI, 0x00000000)  returns 0x00 (0000ms, 1188ms total)
T06AC 002:038 JLINK_WriteReg(CONTROL, 0x00000000)  returns 0x00 (0000ms, 1188ms total)
T06AC 002:038 JLINK_WriteReg(FAULTMASK, 0x00000000)  returns 0x00 (0000ms, 1188ms total)
T06AC 002:038 JLINK_WriteReg(BASEPRI_MAX, 0x00000000)  returns 0x00 (0000ms, 1188ms total)
T06AC 002:038 JLINK_SetBPEx(Addr = 0x20000000, Type = 0xFFFFFFF2)  returns 0x0000000F (0000ms, 1188ms total)
T06AC 002:038 JLINK_Go() -- CPU_WriteMem(4 bytes @ 0xE0002008) -- CPU_WriteMem(4 bytes @ 0xE000200C) -- CPU_WriteMem(4 bytes @ 0xE0002010) -- CPU_WriteMem(4 bytes @ 0xE0002014) -- CPU_WriteMem(4 bytes @ 0xE0002018) -- CPU_WriteMem(4 bytes @ 0xE000201C) (0012ms, 1188ms total)
T06AC 002:050 JLINK_IsHalted()  returns FALSE (0002ms, 1200ms total)
T06AC 002:103 JLINK_IsHalted() -- CPU_ReadMem(2 bytes @ 0x20000000)  returns TRUE (0010ms, 1200ms total)
